!AWR Design Environment (4229) Thu Oct 16 13:34:51 2008
!
!CGH40010F_V3 Vdd=28 volts; Idq=200mA
!freq-unit  param-type  data-format  keyword  impedance-ohms
# GHz           S          MA           R         50
!-----------------------------------------------------------------------------
!Freq         MagS11       AngS11       MagS21       AngS21       MagS12       AngS12       MagS22       AngS22
 0.5          0.89885     -139.91       18.407       101.6        0.026748     15.281       0.36755     -124.81      
 0.6          0.8945      -147.69       15.65        96.438       0.027241     10.861       0.361       -132.08      
 0.7          0.89172     -153.69       13.583       92.132       0.027524     7.3029       0.35766     -137.49      
 0.8          0.88988     -158.52       11.984       88.392       0.027683     4.3148       0.35637     -141.64      
 0.9          0.88862     -162.54       10.714       85.044       0.027764     1.7228       0.35645     -144.91      
 1            0.88773     -165.97       9.6822       81.977       0.027792    -0.58283      0.35752     -147.56      
 1.1          0.88711     -168.97       8.8291       79.119       0.02778     -2.6742       0.35933     -149.74      
 1.2          0.88667     -171.64       8.1125       76.42        0.02774     -4.6003       0.3617      -151.58      
 1.3          0.88636     -174.06       7.5023       73.844       0.027677    -6.3956       0.36454     -153.16      
 1.4          0.88615     -176.28       6.9769       71.367       0.027595    -8.0848       0.36775     -154.56      
 1.5          0.88601     -178.34       6.5199       68.97        0.027497    -9.686        0.37126     -155.8       
 1.6          0.88593      179.73       6.1189       66.638       0.027385    -11.213       0.37503     -156.94      
 1.7          0.8859       177.9        5.7643       64.36        0.027261    -12.675       0.37902     -157.99      
 1.8          0.8859       176.15       5.4486       62.127       0.027127    -14.082       0.38318     -158.98      
 1.9          0.88593      174.48       5.1659       59.933       0.026983    -15.438       0.38749     -159.93      
 2            0.88598      172.86       4.9113       57.773       0.02683     -16.749       0.39192     -160.84      
 2.1          0.88605      171.29       4.681        55.641       0.026669    -18.018       0.39644     -161.73      
 2.2          0.88613      169.76       4.4716       53.534       0.0265      -19.249       0.40103     -162.6       
 2.3          0.88622      168.27       4.2805       51.448       0.026326    -20.442       0.40568     -163.47      
 2.4          0.88631      166.8        4.1055       49.381       0.026144    -21.601       0.41035     -164.34      
 2.5          0.88641      165.35       3.9447       47.331       0.025958    -22.727       0.41504     -165.2       
 2.6          0.88651      163.92       3.7965       45.295       0.025766    -23.82        0.41973     -166.08      
 2.7          0.8866       162.5        3.6595       43.272       0.02557     -24.882       0.4244      -166.96      
 2.8          0.8867       161.09       3.5326       41.261       0.025369    -25.912       0.42904     -167.85      
 2.9          0.88679      159.69       3.4147       39.259       0.025165    -26.912       0.43364     -168.76      
 3            0.88687      158.29       3.305        37.265       0.024958    -27.881       0.43819     -169.67      
 3.1          0.88694      156.89       3.2027       35.278       0.024749    -28.819       0.44268     -170.6       
 3.2          0.88701      155.5        3.1072       33.298       0.024537    -29.725       0.44709     -171.55      
 3.3          0.88706      154.1        3.0178       31.322       0.024324    -30.601       0.45142     -172.52      
 3.4          0.8871       152.69       2.934        29.351       0.024109    -31.445       0.45566     -173.5       
 3.5          0.88713      151.28       2.8554       27.382       0.023894    -32.258       0.4598      -174.49      
 3.6          0.88715      149.87       2.7815       25.415       0.023679    -33.037       0.46384     -175.51      
 3.7          0.88715      148.44       2.7119       23.449       0.023465    -33.784       0.46777     -176.54      
 3.8          0.88714      147          2.6464       21.484       0.023251    -34.497       0.47159     -177.6       
 3.9          0.88711      145.55       2.5847       19.518       0.02304     -35.175       0.47529     -178.67      
 4            0.88706      144.09       2.5264       17.55        0.022831    -35.819       0.47886     -179.76      
 4.1          0.887        142.61       2.4713       15.579       0.022624    -36.426       0.48231      179.13      
 4.2          0.88693      141.12       2.4192       13.606       0.022422    -36.998       0.48562      178         
 4.3          0.88683      139.61       2.37         11.628       0.022224    -37.532       0.4888       176.85      
 4.4          0.88672      138.08       2.3233       9.6448       0.022031    -38.029       0.49184      175.68      
 4.5          0.88659      136.53       2.2791       7.6559       0.021845    -38.488       0.49475      174.49      
 4.6          0.88645      134.95       2.2372       5.66         0.021665    -38.908       0.49751      173.27      
 4.7          0.88629      133.36       2.1974       3.6564       0.021494    -39.289       0.50013      172.03      
 4.8          0.88611      131.75       2.1596       1.6442       0.021331    -39.631       0.50261      170.78      
 4.9          0.88591      130.1        2.1237      -0.37747      0.021178    -39.934       0.50494      169.49      
 5            0.88571      128.44       2.0896      -2.4096       0.021036    -40.199       0.50712      168.19      
 5.1          0.88549      126.75       2.0572      -4.4531       0.020906    -40.425       0.50916      166.85      
 5.2          0.88525      125.03       2.0263      -6.5088       0.020789    -40.614       0.51106      165.5       
 5.3          0.885        123.28       1.9969      -8.5778       0.020687    -40.767       0.51281      164.11      
 5.4          0.88475      121.5        1.9689      -10.661       0.0206      -40.885       0.51441      162.7       
 5.5          0.88448      119.69       1.9422      -12.759       0.02053     -40.971       0.51587      161.26      
 5.6          0.88421      117.85       1.9167      -14.873       0.020478    -41.027       0.51719      159.8       
 5.7          0.88393      115.98       1.8923      -17.004       0.020446    -41.056       0.51836      158.3       
 5.8          0.88365      114.07       1.8691      -19.153       0.020434    -41.062       0.51939      156.77      
 5.9          0.88337      112.13       1.8468      -21.32        0.020445    -41.048       0.52029      155.21      
 6            0.88309      110.15       1.8255      -23.508       0.020478    -41.02        0.52105      153.61      
